#  HZ   S   RI   R     50.00 
! Rohde & Schwarz ZVT8 8Ports - Version 4.11 - 1300.0000k08 SN: 100242
! Date: 2026-06-18 01:18:41
! Measurements: S11 S12 S13 S14 S15 S21 S22 S23 S24 S25 S31 S32 S33 S34 S35 S41 S42 S43 S44 S45 S51 S52 S53 S54 S55 
! 
 2.000000000000000E7     1.837843592511490E-4  -7.598453667014837E-3   8.133894205093384E-1  -5.560135841369629E-1   6.061129170120694E-5   2.620909071993083E-4   1.081274021998979E-4   2.362737723160535E-4  
                         9.890682849800214E-5   2.520036359783262E-4  
                         8.165636658668518E-1  -5.565711259841919E-1   4.242261406034231E-3  -5.047086626291275E-3   1.205469961860217E-4   2.675106807146221E-4   5.910707841394469E-5   2.786264522001147E-4  
                        -1.870298365247436E-5  -4.781075404025614E-6  
                         5.715158840757795E-5   2.818938228301704E-4   1.187901725643314E-4   2.529278572183102E-4   9.890147447586060E-1  -1.203749794512987E-2  -3.856403509416850E-6   3.947586264985148E-6  
                        -4.244691808708012E-6  -8.266225677289185E-7  
                         1.150717434938997E-4   2.410114248050377E-4   5.186406633583829E-5   2.646797511260957E-4   2.071393964797608E-6   6.505287728941767E-6   9.894317984580994E-1  -1.799743063747883E-2  
                         1.219724026668700E-6   8.054931868173298E-7  
                         1.049073689500801E-4   2.506960881873965E-4  -1.640069785935339E-5   2.771639856291586E-6  -4.456385340745328E-7  -6.577047315659002E-6  -1.634667751204688E-5   2.705910674194456E-6  
                         1.504811953054741E-4   4.950619768351317E-4  
                        
 2.001000000000000E7     1.119623892009258E-3  -7.896735332906246E-3   8.145710825920105E-1  -5.516911745071411E-1   5.958466135780327E-5   2.817327913362533E-4   1.146984795923345E-4   2.480622788425535E-4  
                         9.021812002174556E-5   2.391127927694470E-4  
                         8.180876970291138E-1  -5.535892248153687E-1   3.787626745179296E-3  -5.409013014286757E-3   1.057785484590568E-4   2.573142410255969E-4   5.498661994352005E-5   2.708109095692635E-4  
                        -8.825114491628483E-6   7.926042599137873E-6  
                         5.692004197044298E-5   2.764874661806971E-4   1.233079819940031E-4   2.649811794981360E-4   9.884890317916870E-1  -9.262361563742161E-3  -6.810662966927339E-7  -6.759769803466043E-6  
                         6.147991825855570E-6  -6.112305527494755E-6  
                         1.113095495384187E-4   2.478697570040822E-4   6.081489846110344E-5   2.657458826433867E-4   2.575730604803539E-6  -1.155366317107109E-5   9.889551401138306E-1  -1.240955758839846E-2  
                        -5.124269932821335E-7   3.435469295709481E-7  
                         8.357165643246844E-5   2.482942654751241E-4  -8.672779586049728E-6   1.638546905269323E-6  -1.463959847569640E-6   1.153172888734844E-6   8.339256964973174E-6  -6.925318757566856E-6  
                         4.829088575206697E-4   1.410268596373498E-4  
                        
 2.002000000000000E7     8.284061186714098E-5  -7.722951471805573E-3   8.148739337921143E-1  -5.521131157875061E-1   5.526502354769036E-5   2.811851445585489E-4   1.145063142757863E-4   2.461656986270100E-4  
                         8.988683111965656E-5   2.593244425952435E-4  
                         8.174771666526794E-1  -5.535467863082886E-1   3.886078717187047E-3  -4.962245933711529E-3   1.101525995181873E-4   2.662313636392355E-4   4.804082345799543E-5   2.755371970124543E-4  
                         5.438244443212170E-6   1.173983037006110E-6  
                         6.407496402971447E-5   2.730672131292522E-4   1.259214186575264E-4   2.692557754926384E-4   9.888333082199097E-1  -9.691801853477955E-3   1.481751041865209E-6  -1.892569230221852E-6  
                        -5.310750566422939E-6   3.128364141957718E-6  
                         1.041370778693818E-4   2.427195722702891E-4   4.868175528827123E-5   2.610371157061309E-4   7.588278549519600E-6   8.155546424859494E-7   9.891789555549622E-1  -1.257047429680824E-2  
                        -8.444789045825019E-7  -6.068410129955737E-6  
                         9.884087194222957E-5   2.438626834191382E-4  -1.255946017408860E-6  -5.062690320301044E-7  -6.619637133553624E-6  -5.846050498803379E-6  -1.451977027500107E-6   7.067018941597780E-6  
                         6.393287330865860E-4   6.564968498423696E-5  
                        
 2.003000000000000E7    -2.984415623359382E-4  -7.774672936648130E-3   8.147801756858826E-1  -5.522364377975464E-1   4.790705133927986E-5   2.856544451788068E-4   1.106462150346488E-4   2.495718945283443E-4  
                         8.535733650205657E-5   2.538336848374456E-4  
                         8.173207640647888E-1  -5.540624260902405E-1   4.355062730610371E-3  -5.048464052379131E-3   1.182229098048993E-4   2.551933866925538E-4   4.936807454214431E-5   2.733329311013222E-4  
                        -5.398409939516569E-6  -3.374199877725914E-6  
                         6.304174894466996E-5   2.713394351303577E-4   1.215433003380895E-4   2.689872053451836E-4   9.885253310203552E-1  -9.642691351473332E-3  -1.170907353298389E-6  -6.896381364640547E-6  
                         9.428858902538195E-6   5.934738965152064E-6  
                         1.004529040073976E-4   2.436433715047315E-4   5.565659375861287E-5   2.691602567210794E-4  -1.885433789539093E-6   1.024182620312786E-5   9.891532659530640E-1  -1.267570257186890E-2  
                        -1.973216058104299E-6   6.847656663921953E-7  
                         9.903835598379374E-5   2.421963872620836E-4  -9.114917816077650E-7  -8.314338629133999E-6   7.136504336813232E-6  -5.234813215793110E-6   3.661140681288089E-6  -4.593566700350493E-6  
                         5.054798675701022E-4   6.112430128268898E-5  
                        
 2.004000000000000E7    -6.070529343560338E-4  -8.534713648259640E-3   8.144307136535645E-1  -5.526391863822937E-1   5.543413499253802E-5   2.862883848138154E-4   1.048563935910352E-4   2.455519861541688E-4  
                         9.906864579534158E-5   2.565825707279146E-4  
                         8.172379732131958E-1  -5.538188815116882E-1   4.428160376846790E-3  -5.834627430886030E-3   1.205418957397342E-4   2.578861021902412E-4   5.316100941854529E-5   2.832642057910562E-4  
                        -1.470667484682053E-5  -8.927125236368738E-6  
                         6.577235035365447E-5   2.828984579537064E-4   1.133629193645902E-4   2.622417814563960E-4   9.888535141944885E-1  -9.641700424253941E-3  -3.890612333634635E-6   2.173531584048760E-6  
                        -1.267529000870127E-6   2.322728960280074E-6  
                         1.055639950209297E-4   2.461124677211046E-4   5.420533125288785E-5   2.578794665168971E-4   5.627149676001864E-6  -9.455681720282883E-6   9.890144467353821E-1  -1.253372430801392E-2  
                         5.151864115759963E-6   4.870070370088797E-6  
                         9.036487608682364E-5   2.494241343811154E-4   6.649777901657217E-7  -5.745691396441544E-6  -2.828923925335403E-6   9.583007340552285E-6  -4.386842647363665E-6  -1.763481691341440E-6  
                         5.692372797057033E-4   1.253301161341369E-4  
                        
 2.005000000000000E7    -1.175536890514195E-4  -7.816574536263943E-3   8.140911459922791E-1  -5.526412725448608E-1   5.232411422184669E-5   2.858969091903418E-4   9.447698539588600E-5   2.532166254241020E-4  
                         9.170856355922297E-5   2.576222759671509E-4  
                         8.177546858787537E-1  -5.544202923774719E-1   3.147509181872010E-3  -5.594577174633741E-3   1.045770259224810E-4   2.610196534078568E-4   5.694166247849353E-5   2.683891507331282E-4  
                        -1.078924651665147E-5  -6.197808033903129E-6  
                         5.923409480601549E-5   2.822208043653518E-4   1.163717461167835E-4   2.502373245079070E-4   9.890244603157044E-1  -9.600117802619934E-3  -3.952697795739368E-7  -1.209872789331712E-5  
                         1.835630314417358E-6  -6.880926775920671E-6  
                         1.185492219519801E-4   2.414032933302224E-4   5.396501364884898E-5   2.610472438391298E-4   1.522749585092242E-6   8.072522177826613E-6   9.887820482254028E-1  -1.240406278520823E-2  
                         4.529655598162208E-6  -6.475766895164270E-6  
                         9.518853767076507E-5   2.507794706616551E-4   7.014792572590523E-6  -1.995366574192303E-6   3.838800353150873E-7   1.676557872087869E-6   1.570284780427755E-6   1.525922743894626E-5  
                         6.284538540057838E-4   1.347471406916156E-4  
                        
 2.006000000000000E7     4.034016747027636E-4  -7.601088844239712E-3   8.143313527107239E-1  -5.528494119644165E-1   5.400141526479274E-5   2.745060482993722E-4   1.045551398419775E-4   2.478189999237657E-4  
                         8.855219493852928E-5   2.574312384240329E-4  
                         8.169862627983093E-1  -5.546925663948059E-1   4.584883805364370E-3  -5.083791911602020E-3   1.156562357209623E-4   2.671363472472876E-4   5.253163180896081E-5   2.704477810766548E-4  
                        -1.288068870053394E-5  -4.154551788815297E-6  
                         5.236531433183700E-5   2.828661818057299E-4   1.153805569629185E-4   2.574638638179749E-4   9.887706041336060E-1  -9.743676520884037E-3  -8.163498250723933E-7  -1.176878754449717E-6  
                         4.055347289977362E-6  -4.170788542978698E-6  
                         1.083089591702446E-4   2.556949912104756E-4   6.640568608418107E-5   2.663953055161983E-4   1.110956509364769E-5   2.902055712183937E-6   9.890136718750000E-1  -1.292301435023546E-2  
                         8.321557288581971E-6  -2.054794322248199E-6  
                         9.889403008855879E-5   2.356473560212180E-4  -9.035537004820071E-6  -1.288266230403679E-5   7.672384526813403E-6  -3.064119198370463E-7   5.734931619372219E-6  -8.525335942977108E-6  
                         5.240702303126454E-4   7.360824838542612E-6  
                        
 2.007000000000000E7     2.757752954494208E-4  -8.985765278339386E-3   8.140900135040283E-1  -5.532850027084351E-1   5.932660496910103E-5   2.796440967358649E-4   1.130053278757259E-4   2.465715515427291E-4  
                         8.402492676395923E-5   2.551841898821294E-4  
                         8.164779543876648E-1  -5.550947189331055E-1   4.788074642419815E-3  -4.910647403448820E-3   1.108176002162509E-4   2.583747846074402E-4   5.754003723268397E-5   2.679537574294955E-4  
                        -7.380028364423197E-6  -1.020725903799757E-7  
                         5.785116445622407E-5   2.742476353887469E-4   1.097440617741086E-4   2.498234389349818E-4   9.892482757568359E-1  -9.843096137046814E-3  -5.085723387310281E-6   9.057534043677151E-6  
                        -3.228479727113154E-6   1.194359538203571E-5  
                         1.176730656879954E-4   2.493824285920709E-4   5.685250289388932E-5   2.660789759829640E-4   1.117493525271129E-6  -6.161711212371301E-7   9.893829226493835E-1  -1.286522764712572E-2  
                        -6.871671757835429E-6   6.137285254226299E-6  
                         8.652111864648759E-5   2.524423180148006E-4   1.371783696413331E-6  -2.793857220240170E-6   9.318038109995541E-7  -6.361323812598130E-6   7.143587481550640E-7   1.029182428169406E-7  
                         4.870574048254639E-4   1.733524259179831E-4  
                        
 2.008000000000000E7     4.702370497398078E-4  -8.157067000865936E-3   8.138344883918762E-1  -5.535211563110352E-1   5.507743117050268E-5   2.772382867988199E-4   1.151663236669265E-4   2.419073571218178E-4  
                         9.302084799855948E-5   2.470925683155656E-4  
                         8.167206645011902E-1  -5.553383827209473E-1   4.411746747791767E-3  -4.968699067831039E-3   1.142672990681604E-4   2.623004256747663E-4   5.367659105104394E-5   2.726675011217594E-4  
                        -3.940916485589696E-6  -1.837333911680616E-5  
                         6.170242704683915E-5   2.748988335952163E-4   1.199004545924254E-4   2.613899996504188E-4   9.890820384025574E-1  -9.634611196815968E-3  -2.897157855841215E-6   7.747639756416902E-6  
                         3.696636440508883E-6   1.687017061158258E-6  
                         9.529538510832936E-5   2.544369490351528E-4   5.553052687901072E-5   2.549795899540186E-4   6.546720669575734E-6  -7.307439773285296E-7   9.893212318420410E-1  -1.290083676576614E-2  
                         2.212031404269510E-6  -3.040488536498742E-6  
                         9.134880383498967E-5   2.544525486882776E-4   6.745337032043608E-6  -7.794716907483235E-7  -3.002826645115420E-7  -6.285908511927119E-6  -1.566198761793203E-6   3.096833552262979E-6  
                         4.854873986914754E-4   1.452445285394788E-4  
                        
 2.009000000000000E7     1.557021751068533E-4  -8.229612372815609E-3   8.136174082756043E-1  -5.539125204086304E-1   5.986926771583967E-5   2.889955358114094E-4   1.001767013804056E-4   2.492451458238065E-4  
                         8.520561095792800E-5   2.569261414464563E-4  
                         8.167402744293213E-1  -5.551592111587524E-1   4.051407333463430E-3  -5.209945607930422E-3   1.147778457379900E-4   2.641875471454114E-4   5.525161759578623E-5   2.683251805137843E-4  
                        -1.371089092572220E-5   2.477905582054518E-6  
                         5.285848237690516E-5   2.786995319183916E-4   1.266799517907202E-4   2.637647849041969E-4   9.889482855796814E-1  -9.844244457781315E-3   4.459689080249518E-6   1.022154719976243E-5  
                        -6.170560595819552E-7   5.992430942569627E-6  
                         1.128138537751511E-4   2.505893935449421E-4   6.305297574726865E-5   2.563188900239766E-4   3.726854401975288E-6  -8.133058145176619E-6   9.892386198043823E-1  -1.238533202558756E-2  
                         1.493003992436570E-6  -1.346809676761041E-5  
                         9.647817205404863E-5   2.539048437029123E-4   2.911103138103499E-6  -5.104982392367674E-6  -1.775228611222701E-6   5.914071152801625E-7  -7.085499419190455E-6   7.801213541824836E-6  
                         4.751318192575127E-4  -7.711751095484942E-6  
                        
 2.010000000000000E7     8.930143667384982E-5  -8.603155612945557E-3   8.135310411453247E-1  -5.540835857391357E-1   6.243729876587167E-5   2.855684142559767E-4   1.061653674696572E-4   2.526258467696607E-4  
                         9.564563515596092E-5   2.528876939322799E-4  
                         8.164098262786865E-1  -5.556446313858032E-1   4.423429258167744E-3  -5.354311317205429E-3   1.156794023700059E-4   2.559613785706461E-4   3.972117337980308E-5   2.731254207901657E-4  
                        -1.354506275674794E-5   2.291071723448113E-7  
                         6.338239472825080E-5   2.714239526540041E-4   1.154040146502666E-4   2.586276968941093E-4   9.889639616012573E-1  -9.970323182642460E-3   4.934506705467356E-6   9.164771199721145E-7  
                         7.909479791123886E-6  -8.485876037411799E-7  
                         1.230319612659514E-4   2.522167924325913E-4   6.639398634433746E-5   2.712046843953431E-4   2.998043783009052E-6   8.043758498388343E-6   9.891760945320129E-1  -1.254631672054529E-2  
                         5.428216809377773E-6   5.241005965217482E-6  
                         9.369558392791078E-5   2.639642625581473E-4  -1.197646724904189E-5  -1.070259077096125E-5   5.080863502371358E-6   7.886991625127848E-6   8.156220246746671E-6  -4.510784947342472E-6  
                         4.031720454804599E-4   5.305925151333213E-5  
                        
 2.011000000000000E7     1.432665303582326E-4  -8.806743659079075E-3   8.133624792098999E-1  -5.544584989547730E-1   6.806311284890398E-5   2.784878306556493E-4   1.128986623371020E-4   2.424492849968374E-4  
                         9.583745850250125E-5   2.570498327258974E-4  
                         8.161991238594055E-1  -5.560635924339294E-1   4.264509305357933E-3  -5.040376912802458E-3   1.107049974962138E-4   2.681901096366346E-4   5.544019586523064E-5   2.764945675153285E-4  
                        -4.584974703902844E-6  -1.047813748300541E-5  
                         5.517166573554277E-5   2.783800882752985E-4   1.187275047414005E-4   2.642486069817096E-4   9.889567494392395E-1  -9.933684952557087E-3   7.955481123644859E-6  -2.730379492277280E-6  
                        -1.228464270752738E-6  -3.098809656876256E-6  
                         1.066392578650266E-4   2.356690529268235E-4   6.446876795962453E-5   2.666173386387527E-4  -8.346616482413083E-7  -2.742593096627388E-6   9.893245100975037E-1  -1.270886324346066E-2  
                        -1.029831219057087E-5   2.804622454277705E-6  
                         9.968991798814386E-5   2.420667151454836E-4  -1.175043507828377E-5  -4.711046585725853E-6   6.509444574476220E-6  -3.112132617388852E-6   7.901040817159810E-7  -5.527210760192247E-6  
                         4.014498263131827E-4   6.314329948509112E-5  
                        
 2.012000000000000E7    -6.438480340875685E-5  -8.448578417301178E-3   8.134742379188538E-1  -5.547307729721069E-1   6.053656761650927E-5   2.757858310360462E-4   1.091440135496669E-4   2.463191922288388E-4  
                         8.962168794823811E-5   2.449812600389123E-4  
                         8.160732984542847E-1  -5.559132695198059E-1   4.375381395220757E-3  -5.607016384601593E-3   1.137747312895954E-4   2.627727517392486E-4   5.972254803054966E-5   2.748891420196742E-4  
                        -4.546933269011788E-6   2.927383320638910E-6  
                         5.228140435065143E-5   2.836599014699459E-4   1.195203076349571E-4   2.663645718712360E-4   9.890909194946289E-1  -9.717741049826145E-3   1.853600338108663E-6  -3.158896561217262E-6  
                        -1.092306683858624E-5   3.493579015412252E-6  
                         1.012322391034104E-4   2.486390876583755E-4   6.398229743354023E-5   2.671564288903028E-4   1.693048119477680E-7  -1.052028324011189E-6   9.893581867218018E-1  -1.277482230216265E-2  
                         3.884951183863450E-6  -1.079349840438226E-5  
                         9.469961514696479E-5   2.547940239310265E-4   4.671794613386737E-6  -2.882869921450038E-5  -6.427383141272003E-6  -3.941684099117992E-6  -8.439777957391925E-6   1.644407234380196E-6  
                         6.053742836229503E-4   1.053709493135102E-4  
                        
 2.013000000000000E7     1.035704262903892E-4  -8.427374996244907E-3   8.131032586097717E-1  -5.549055933952332E-1   6.119737372500822E-5   2.792521263472736E-4   1.124305999837816E-4   2.492058265488595E-4  
                         9.816287638386712E-5   2.504953881725669E-4  
                         8.161053657531738E-1  -5.566445589065552E-1   4.342910833656788E-3  -5.256421398371458E-3   1.174590142909437E-4   2.664010680746287E-4   4.929703936795704E-5   2.697501913644373E-4  
                        -7.056990398268681E-6  -8.151610018103384E-6  
                         6.222737283678725E-5   2.822065434884280E-4   1.150658281403594E-4   2.579278079792857E-4   9.889327287673950E-1  -9.690527804195881E-3  -5.401134330895729E-6  -2.324960405530874E-6  
                         2.381242211413337E-6  -5.108241111884126E-6  
                         1.139407249866054E-4   2.393184840911999E-4   5.652185791404918E-5   2.643596963025630E-4  -1.872266352620500E-6   3.163760084134992E-6   9.892151951789856E-1  -1.291600707918406E-2  
                        -1.686452606008970E-6  -9.110045198212902E-7  
