! Touchstone file exported from HFSS 2022.2.4
!        File:           /home/frederic/Ansoft/Conical Stub.aedt
!        Generated:      11:44:42 AM  Jun 23, 2026
!        Design:         HFSSDesign1
!        Project:        Conical Stub
!        Setup:          Setup1
!        Solution:       Sweep
!
! Variables:
!        L = 1000mm
!        L2 = 250mm
!        OD = 235mm
!        Zsc = 50ohm
!        Ztop = 20ohm
!
!Data is not renormalized
# GHz S MA R 19.968461
! Terminal data exported
! Port[1] = 1
! Port[2] = 2
0.025                          0.473620238987453 103.276417534558 0.880729169053385 13.2596798625778 0.880729169053386 13.2596798625778 0.473620238987453 103.242942190597 
! Gamma         0                0.523961255488054 0                0.523961255487942 
! Port Impedance         19.9684612517809 0                19.9694771395773 0                
0.026                          0.456048903115329 101.539541183832 0.889954386538931 11.5221708088448 0.889954386538932 11.5221708088448 0.456048903136036 101.504828623973 
! Gamma         0                0.544919705707568 0                0.544919705707449 
! Port Impedance         19.9684612517808 0                19.9694771395732 0                
0.027                          0.439152202657332 99.8571230255053 0.898412117290186 9.83913169248664 0.898412117290186 9.83913169248663 0.439152202695875 99.8211872698768 
! Gamma         0                0.565878155927082 0                0.565878155926957 
! Port Impedance         19.9684612517807 0                19.969477139566  0                
0.028                          0.422897015850303 98.2251606195527 0.906177040566511 8.20655966623432 0.906177040566511 8.20655966623429 0.422897015903004 98.1880166974031 
! Gamma         0                0.586836606146597 0                0.586836606146467 
! Port Impedance         19.9684612517805 0                19.9694771395504 0                
0.029                          0.407250474381361 96.6399724497342 0.913315728868133 6.62077298749604 0.913315728868133 6.62077298749601 0.407250474444046 96.6016364768919 
! Gamma         0                0.607795056366111 0                0.607795056365977 
! Port Impedance         19.9684612517804 0                19.9694771394918 0                
0.03                           0.392180370583884 95.0981736866676 0.919887542819619 5.07838676195849 0.919887542819619 5.07838676195847 0.392180370652166 95.0586629520046 
! Gamma         0                0.628753506585626 0                0.628753506585489 
! Port Impedance         19.9684612517802 0                19.9694771398562 0                
0.031                          0.37765544401417 93.5966526614839 0.925945439340071 3.57628940270358 0.925945439340071 3.57628940270356 0.377655444083681 93.5559857236157 
! Gamma         0                0.649711956805141 0                0.649711956805001 
! Port Impedance         19.9684612517801 0                19.9694771396499 0                
0.032                          0.363645575038374 92.1325484252367 0.931536696168671 2.11162017931252 0.93153669616867 2.1116201793125  0.363645575104972 92.0907452208941 
! Gamma         0                0.670670407024655 0                0.670670407024514 
! Port Impedance         19.9684612517799 0                19.9694771396248 0                
0.033                          0.35012190735603 90.7032296161722 0.936703557859589 0.681748078549294 0.936703557859589 0.681748078549279 0.350121907415966 90.6603115819254 
! Gamma         0                0.69162885724417 0                0.691628857244028 
! Port Impedance         19.9684612517797 0                19.9694771396151 0                
0.034                          0.337056916742286 89.3062747478472 0.941483809426656 -0.71574791075399 0.941483809426656 -0.715747910754008 0.337056916792344 89.2622649571561 
! Gamma         0                0.712587307463684 0                0.712587307463543 
! Port Impedance         19.9684612517795 0                19.9694771396098 0                
0.035                          0.324424439548443 87.9394539547912 0.94591128423252 -2.08309705214832 0.94591128423252 -2.08309705214833 0.324424439586044 87.8943772727058 
! Gamma         0                0.733545757683198 0                0.733545757683058 
! Port Impedance         19.9684612517792 0                19.9694771396066 0                
0.036                          0.312199671508919 86.6007121803773 0.950016312710822 -3.42235367080223 0.950016312710823 -3.42235367080224 0.312199671532202 86.5545954386414 
! Gamma         0                0.75450420790271 0                0.754504207902574 
! Port Impedance         19.9684612517789 0                19.9694771396044 0                
0.037                          0.300359145027483 85.2881537572901 0.953826118244383 -4.73541256713683 0.953826118244384 -4.73541256713684 0.300359145035353 85.2410259531169 
! Gamma         0                0.775462658122212 0                0.77546265812209 
! Port Impedance         19.9684612517787 0                19.9694771396028 0                
0.038                          0.288880691239564 84.0000283095218 0.957365166108139 -6.02402310582187 0.957365166108139 -6.02402310582188 0.288880691231718 83.9519208319407 
! Gamma         0                0.79642110834177 0                0.796421108341606 
! Port Impedance         19.9684612517783 0                19.9694771396015 0                
0.039                          0.277743391672783 82.7347178925278 0.960655470896835 -7.28980206327868 0.960655470896835 -7.28980206327869 0.277743391649708 82.6856647809781 
! Gamma         0                0.817379558561268 0                0.817379558561123 
! Port Impedance         19.968461251778  0                19.9694771396005 0                
0.04                           0.26692752317315 81.4907252822996 0.963716867343047 -8.53424532258402 0.963716867343048 -8.53424532258404 0.266927523136095 81.4407635230998 
! Gamma         0                0.83833800878078 0                0.83833800878064 
! Port Impedance         19.9684612517776 0                19.9694771395997 0                
0.041                          0.256414498863731 80.266663322656  0.96656724892189 -9.75873850598042 0.966567248921891 -9.75873850598044 0.256414498814665 80.2158331901628 
! Gamma         0                0.859296459000294 0                0.859296459000158 
! Port Impedance         19.9684612517772 0                19.9694771395991 0                
0.042                          0.246186807202573 79.0612452415485 0.969222778153501 -10.9645666335321 0.969222778153502 -10.9645666335321 0.246186807144111 79.0095906922973 
! Gamma         0                0.880254909219808 0                0.880254909219675 
! Port Impedance         19.9684612517768 0                19.9694771395985 0                
0.043                          0.23622795066452 77.8732758505567 0.971698072063486 -12.152922892877 0.971698072063488 -12.152922892877 0.236227950599834 77.8208449805296 
! Gamma         0                0.901213359439322 0                0.901213359439193 
! Port Impedance         19.9684612517764 0                19.969477139598  0                
0.044                          0.226522385153397 76.7016435462385 0.974006365849902 -13.3249166002704 0.974006365849904 -13.3249166002704 0.226522385086104 76.6484891237535 
! Gamma         0                0.922171809658836 0                0.922171809658711 
! Port Impedance         19.9684612517759 0                19.9694771395975 0                
0.045                          0.217055460929782 75.5453130370595 0.976159657434391 -14.4815804277236 0.976159657434393 -14.4815804277236 0.217055460863819 75.4914931267571 
! Gamma         0                0.94313025987835 0                0.943130259878229 
! Port Impedance         19.9684612517754 0                19.9694771395971 0                
0.046                          0.207813365594098 74.4033187248358 0.978168835243937 -15.6238769653905 0.978168835243939 -15.6238769653905 0.207813365533576 74.3488974220732 
! Gamma         0                0.964088710097864 0                0.964088710097747 
! Port Impedance         19.9684612517749 0                19.9694771395967 0                
0.047                          0.198783069478188 73.2747586747192 0.980043791276163 -16.7527046826883 0.980043791276165 -16.7527046826883 0.198783069427232 73.219806974632  
! Gamma         0                0.985047160317378 0                0.985047160317265 
! Port Impedance         19.9684612517744 0                19.9694771395964 0                
0.048                          0.18995227365783 72.1587891124902 0.98179352124231 -17.8689033461352 0.981793521242312 -17.8689033461352 0.189952273620409 72.1033859444419 
! Gamma         0                1.00600561053689 0                1.00600561053678 
! Port Impedance         19.9684612517738 0                19.969477139596  0                
0.049                          0.181309360693425 71.0546193921392 0.983426213354748 -18.9732589466374 0.98342621335475 -18.9732589466374 0.181309360673167 70.9988528587831 
! Gamma         0                1.02696406075641 0                1.0269640607563  
! Port Impedance         19.9684612517732 0                19.9694771395956 0                
0.05                           0.172843348128347 69.9615073802211 0.984949327126924 -20.0665081840395 0.984949327126926 -20.0665081840395 0.172843348128347 69.9054762516999 
! Gamma         0                1.04792251097592 0                1.04792251097582 
! Port Impedance         19.9684612517727 0                19.9694771395952 0                
0.051                          0.164543844717833 68.8787552060851 0.986369663379835 -21.1493425521825 0.986369663379836 -21.1493425521825 0.16454384474046 68.82257073508   
! Gamma         0                1.06888096119543 0                1.06888096119534 
! Port Impedance         19.9684612517722 0                19.9694771395947 0                
0.052                          0.156401009320957 67.8057053285397 0.987693426497501 -22.2224120635102 0.987693426497502 -22.2224120635102 0.156401009367649 67.7494934725151 
! Gamma         0                1.08983941141495 0                1.08983941141486 
! Port Impedance         19.9684612517716 0                19.9694771395942 0                
0.053                          0.148405512360232 66.7417368694634 0.988926279841849 -23.2863286484223 0.988926279841849 -23.2863286484223 0.148405512431301 66.6856410348397 
! Gamma         0                1.11079786163446 0                1.11079786163437 
! Port Impedance         19.9684612517711 0                19.9694771395935 0                
0.054                          0.140548499734949 65.6862621627455 0.990073395122361 -24.341669261076 0.990073395122362 -24.341669261076 0.140548499829382 65.6304466253119 
! Gamma         0                1.13175631185397 0                1.13175631185389 
! Port Impedance         19.9684612517707 0                19.9694771395926 0                
0.055                          0.132821559062885 64.6387234618742 0.991139496415775 -25.3889787201699 0.991139496415775 -25.38897872017  0.132821559178161 64.5833776737429 
! Gamma         0                1.15271476207349 0                1.15271476207341 
! Port Impedance         19.9684612517703 0                19.9694771395911 0                
0.056                          0.125216688119021 63.5985897400633 0.992128899443899 -26.4287723103825 0.992128899443898 -26.4287723103825 0.125216688250933 63.5439338139463 
! Gamma         0                1.173673212293   0                1.17367321229293 
! Port Impedance         19.9684612517699 0                19.9694771395883 0                
0.057                          0.117726265337757 62.5653535007194 0.993045546641766 -27.4615381675561 0.993045546641765 -27.4615381675561 0.117726265480258 62.5116452800153 
! Gamma         0                1.19463166251251 0                1.19463166251245 
! Port Impedance         19.9684612517696 0                19.9694771395808 0                
0.058                          0.110343022245892 61.5385274893824 0.993893038482205 -28.4877394683986 0.993893038482204 -28.4877394683986 0.110343022390958 61.4860717880721 
! Gamma         0                1.21559011273203 0                1.21559011273196 
! Port Impedance         19.9684612517693 0                19.96947713944   0                
0.059                          0.103060017696451 60.5176411543287 0.994674661465283 -29.5078164433869 0.994674661465281 -29.5078164433869 0.103060017833972 60.4668020180023 
! Gamma         0                1.23654856295154 0                1.23654856295148 
! Port Impedance         19.9684612517692 0                19.969477139616  0                
0.06                           0.0958706137777192 59.502236629879  0.995393413130786 -30.5221882296847 0.995393413130784 -30.5221882296847 0.0958706138954223 59.4534538861713 
! Gamma         0                1.25750701317105 0                1.257507013171   
! Port Impedance         19.968461251769  0                19.9694771396055 0                
0.061                          0.0887684532770572 58.4918638923346 0.996052024408007 -31.5312545792072 0.996052024408004 -31.5312545792072 0.0887684533604655 58.4456759269555 
! Gamma         0                1.27846546339056 0                1.27846546339051 
! Port Impedance         19.968461251769  0                19.9694771396023 0                
0.062                          0.0817474385849448 57.4860745220783 0.996652979578704 -32.5353974354575 0.996652979578701 -32.5353974354575 0.0817474386173734 57.4431503192117 
! Gamma         0                1.29942391361007 0                1.29942391361003 
! Port Impedance         19.968461251769  0                19.9694771396006 0                
0.063                          0.0748017119309128 56.4844131151821 0.997198534095515 -33.5349823914071 0.997198534095511 -33.5349823914071 0.0748017118935031 56.4455984847471 
! Gamma         0                1.32038236382959 0                1.32038236382955 
! Port Impedance         19.968461251769  0                19.9694771395997 0                
0.064                          0.0679256368495245 55.4864046551597 0.997690730468628 -34.5303600394807 0.997690730468624 -34.5303600394807 0.0679256367213123 55.4527909173399 
! Gamma         0                1.3413408140491  0                1.34134081404906 
! Port Impedance         19.9684612517691 0                19.969477139599  0                
0.065                          0.0611137807812834 54.4915347118621 0.998131412407705 -35.5218672236162 0.9981314124077  -35.5218672236162 0.0611137805392814 54.4645643395454 
! Gamma         0                1.36229926426861 0                1.36229926426858 
! Port Impedance         19.9684612517693 0                19.9694771395985 0                
0.066                          0.0543608987205257 53.4992163227424 0.99852223738327 -36.5098282023919 0.998522237383264 -36.5098282023918 0.0543608983397852 53.4808522834268 
! Gamma         0                1.38325771448812 0                1.3832577144881  
! Port Impedance         19.9684612517694 0                19.9694771395982 0                
0.067                          0.0476619178307582 52.5087306815776 0.998864687751805 -37.4945557313343 0.998864687751799 -37.4945557313343 0.0476619172843213 52.5017418901943 
! Gamma         0                1.40421616470763 0                1.40421616470761 
! Port Impedance         19.9684612517696 0                19.9694771395979 0                
0.068                          0.0410119229597076 51.519112401942  0.999160080571105 -38.4763520717284 0.999160080571099 -38.4763520717284 0.0410119222182584 51.5275860028613 
! Gamma         0                1.42517461492714 0                1.42517461492713 
! Port Impedance         19.9684612517699 0                19.9694771395976 0                
0.069                          0.0344061430084964 50.5289059454466 0.999409576216828 -39.4555099325362 0.999409576216822 -39.4555099325362 0.0344061420392426 50.5592435881181 
! Gamma         0                1.44613306514665 0                1.44613306514664 
! Port Impedance         19.9684612517701 0                19.9694771395974 0                
0.07                           0.0278399381665529 49.5355829947725 0.999614185897363 -40.4323133513878 0.999614185897357 -40.4323133513878 0.0278399369300879 49.598657664251  
! Gamma         0                1.46709151536616 0                1.46709151536616 
! Port Impedance         19.9684612517704 0                19.9694771395972 0                
0.071                          0.0213087882235168 48.5338997427642 0.999774778151811 -41.4070385200233 0.999774778151805 -41.4070385200233 0.0213087866647208 48.6504882181262 
! Gamma         0                1.48804996558567 0                1.48804996558567 
! Port Impedance         19.9684612517706 0                19.9694771395971 0                
0.072                          0.0148082831342937 47.5099566833324 0.999892084404984 -42.3799545590346 0.999892084404979 -42.3799545590346 0.0148082811512487 47.7280216476128 
! Gamma         0                1.50900841580518 0                1.50900841580519 
! Port Impedance         19.9684612517709 0                19.969477139597  0                
0.073                          0.00833412466776854 46.4076816374946 0.999966703643524 -43.3513242462745 0.999966703643519 -43.3513242462745 0.00833412195576964 46.8865219006509 
! Gamma         0                1.52996686602469 0                1.5299668660247  
! Port Impedance         19.9684612517712 0                19.9694771395968 0                
0.074                          0.00188239118715195 44.4073458287208 0.999999106268528 -44.3214047028594 0.999999106268523 -44.3214047028594 0.00188238439046423 46.9411796104519 
! Gamma         0                1.5509253162442  0                1.55092531624422 
! Port Impedance         19.9684612517715 0                19.9694771395967 0                
0.075                          0.00455253205973589 -134.679218181185 0.99998963717223 -45.2904480402866 0.999989637172227 -45.2904480402866 0.00455253205973583 -135.901677899391 
! Gamma         0                1.57188376646371 0                1.57188376646373 
! Port Impedance         19.9684612517717 0                19.9694771395966 0                
